
T5A60 000:284 SEGGER J-Link V5.02f Log File (0000ms, 0266ms total)
T5A60 000:284 DLL Compiled: Oct  2 2015 20:51:34 (0000ms, 0266ms total)
T5A60 000:284 Logging started @ 2016-02-18 15:49 (0000ms, 0266ms total)
T5A60 000:284 JLINK_SetWarnOutHandler(...) (0000ms, 0266ms total)
T5A60 000:284 JLINK_OpenEx(...)
Firmware: J-Link ARM V8 compiled Nov 28 2014 13:44:46
Hardware: V8.00
S/N: 799713843
Feature(s): RDI,FlashDL,FlashBP,JFlash,GDBFULL  returns O.K. (0262ms, 0528ms total)
T5A60 000:546 JLINK_SetErrorOutHandler(...) (0000ms, 0528ms total)
T5A60 000:546 JLINK_ExecCommand("ProjectFile = "D:\GitHub\Earphone-Code\dma_uart\JLinkSettings.ini"", ...)Device "CORTEX-M0+" selected.  returns 0x00 (0001ms, 0529ms total)
T5A60 000:548 JLINK_ExecCommand("Device = LPC822M101JHI33", ...)Device "CORTEX-M0+" selected.  returns 0x00 (0002ms, 0531ms total)
T5A60 000:550 JLINK_ExecCommand("DisableConnectionTimeout", ...)  returns 0x01 (0000ms, 0531ms total)
T5A60 000:550 JLINK_GetHardwareVersion()  returns 0x13880 (0000ms, 0531ms total)
T5A60 000:550 JLINK_GetDLLVersion()  returns 50206 (0000ms, 0531ms total)
T5A60 000:550 JLINK_GetFirmwareString(...) (0000ms, 0531ms total)
T5A60 000:564 JLINK_GetDLLVersion()  returns 50206 (0000ms, 0531ms total)
T5A60 000:564 JLINK_GetCompileDateTime() (0000ms, 0531ms total)
T5A60 000:566 JLINK_GetFirmwareString(...) (0000ms, 0531ms total)
T5A60 000:567 JLINK_GetHardwareVersion()  returns 0x13880 (0001ms, 0532ms total)
T5A60 000:576 JLINK_TIF_Select(JLINKARM_TIF_SWD)  returns 0x00 (0001ms, 0533ms total)
T5A60 000:577 JLINK_SetSpeed(10000) (0000ms, 0533ms total)
T5A60 000:577 JLINK_GetId() >0x108 TIF>Found SWD-DP with ID 0x0BC11477 >0x0D TIF> >0x21 TIF> >0x0D TIF> >0x28 TIF> >0x0D TIF> >0x28 TIF> >0x0D TIF> >0x21 TIF> >0x0D TIF> >0x28 TIF> >0x0D TIF> >0x21 TIF> >0x0D TIF> >0x21 TIF> >0x0D TIF> >0x21 TIF> >0x0D TIF> >0x28 TIF> >0x0D TIF> >0x28 TIF> >0x0D TIF> >0x28 TIF> >0x0D TIF> >0x21 TIF> >0x0D TIF> >0x21 TIF> >0x0D TIF> >0x28 TIF> >0x0D TIF> >0x21 TIF> >0x0D TIF> >0x21 TIF> >0x0D TIF> >0x21 TIF> >0x0D TIF> >0x21 TIF> >0x0D TIF> >0x21 TIF> >0x0D TIF>
 >0x28 TIF> >0x0D TIF> >0x21 TIF> >0x0D TIF> >0x21 TIF> >0x0D TIF> >0x21 TIF> >0x0D TIF> >0x28 TIF> >0x0D TIF> >0x28 TIF> >0x0D TIF> >0x21 TIF> >0x0D TIF> >0x28 TIF> >0x0D TIF> >0x28 TIF> >0x0D TIF> >0x28 TIF> >0x0D TIF> >0x21 TIF> >0x0D TIF> >0x21 TIF> >0x0D TIF> >0x28 TIF> >0x0D TIF> >0x21 TIF> >0x0D TIF> >0x21 TIF>Found Cortex-M0 r0p1, Little endian. -- CPU_ReadMem(4 bytes @ 0xE000EDF0) -- CPU_ReadMem(4 bytes @ 0xE0002000)FPUnit: 4 code (BP) slots and 0 literal slots
 -- CPU_ReadMem(4 bytes @ 0xE000EDFC) -- CPU_ReadMem(4 bytes @ 0xE0001000) -- CPU_WriteMem(4 bytes @ 0xE0001000)CoreSight components:ROMTbl 0 @ F0000000 -- CPU_ReadMem(16 bytes @ 0xF0000000) -- CPU_ReadMem(16 bytes @ 0x14000FF0) -- CPU_ReadMem(16 bytes @ 0x14000FE0)ROMTbl 0 [0]: 24000000, CID: 00000000, PID: 00000000 ??? -- CPU_ReadMem(16 bytes @ 0xE00FFFF0) -- CPU_ReadMem(16 bytes @ 0xE00FFFE0)ROMTbl 0 [1]: F00FF000, CID: B105100D, PID: 000BB4C0 ROM TableROMTbl 1 @ E00FF000
 -- CPU_ReadMem(16 bytes @ 0xE00FF000) -- CPU_ReadMem(16 bytes @ 0xE000EFF0) -- CPU_ReadMem(16 bytes @ 0xE000EFE0)ROMTbl 1 [0]: FFF0F000, CID: B105E00D, PID: 000BB008 SCS -- CPU_ReadMem(16 bytes @ 0xE0001FF0) -- CPU_ReadMem(16 bytes @ 0xE0001FE0)ROMTbl 1 [1]: FFF02000, CID: B105E00D, PID: 000BB00A DWT -- CPU_ReadMem(16 bytes @ 0xE0002FF0) -- CPU_ReadMem(16 bytes @ 0xE0002FE0)ROMTbl 1 [2]: FFF03000, CID: B105E00D, PID: 000BB00B FPB >0x0D TIF> >0x21 TIF>  returns 0x0BC11477 (0046ms, 0579ms total)
T5A60 000:623 JLINK_GetDLLVersion()  returns 50206 (0000ms, 0579ms total)
T5A60 000:623 JLINK_CORE_GetFound()  returns 0x60000FF (0000ms, 0579ms total)
T5A60 000:623 JLINK_GetDebugInfo(0x100) -- Value=0xF0000003  returns 0x00 (0000ms, 0579ms total)
T5A60 000:626 JLINK_GetDebugInfo(0x100) -- Value=0xF0000003  returns 0x00 (0000ms, 0579ms total)
T5A60 000:626 JLINK_GetDebugInfo(0x101) -- Value=0x00000000  returns 0x00 (0000ms, 0579ms total)
T5A60 000:626 JLINK_ReadMem (0xE0041FF0, 0x0010 Bytes, ...) -- CPU is running -- CPU_ReadMem(16 bytes @ 0xE0041FF0) - Data: 00 00 00 00 00 00 00 00 00 00 00 00 00 00 00 00  returns 0x00 (0000ms, 0579ms total)
T5A60 000:626 JLINK_GetDebugInfo(0x102) -- Value=0x00000000  returns 0x00 (0001ms, 0580ms total)
T5A60 000:627 JLINK_GetDebugInfo(0x103) -- Value=0x00000000  returns 0x00 (0000ms, 0580ms total)
T5A60 000:627 JLINK_ReadMem (0xE0040FF0, 0x0010 Bytes, ...) -- CPU is running -- CPU_ReadMem(16 bytes @ 0xE0040FF0) - Data: 00 00 00 00 00 00 00 00 00 00 00 00 00 00 00 00  returns 0x00 (0000ms, 0580ms total)
T5A60 000:627 JLINK_GetDebugInfo(0x104) -- Value=0xE0000000  returns 0x00 (0000ms, 0580ms total)
T5A60 000:627 JLINK_GetDebugInfo(0x105) -- Value=0xE0001000  returns 0x00 (0000ms, 0580ms total)
T5A60 000:627 JLINK_GetDebugInfo(0x106) -- Value=0xE0002000  returns 0x00 (0000ms, 0580ms total)
T5A60 000:627 JLINK_GetDebugInfo(0x107) -- Value=0xE000E000  returns 0x00 (0000ms, 0580ms total)
T5A60 000:627 JLINK_GetDebugInfo(0x10C) -- Value=0xE000EDF0  returns 0x00 (0000ms, 0580ms total)
T5A60 000:627 JLINK_ReadMemU32(0xE000ED00, 0x0001 Items, ...) -- CPU is running -- CPU_ReadMem(4 bytes @ 0xE000ED00) - Data: 01 C6 0C 41  returns 0x01 (0000ms, 0580ms total)
T5A60 000:627 JLINK_SetResetType(JLINKARM_RESET_TYPE_NORMAL)  returns JLINKARM_RESET_TYPE_NORMAL (0000ms, 0580ms total)
T5A60 000:627 JLINK_Reset() -- CPU is running -- CPU_WriteMem(4 bytes @ 0xE000EDF0) -- CPU is running -- CPU_WriteMem(4 bytes @ 0xE000EDFC) >0x35 TIF> -- CPU is running -- CPU_WriteMem(4 bytes @ 0xE000ED0C) -- CPU is running -- CPU_ReadMem(4 bytes @ 0xE000EDF0) -- CPU is running -- CPU_ReadMem(4 bytes @ 0xE000EDF0) -- CPU is running -- CPU_WriteMem(4 bytes @ 0xE000EDF0) -- CPU is running -- CPU_WriteMem(4 bytes @ 0xE000EDFC) -- CPU is running -- CPU_ReadMem(4 bytes @ 0xE000EDF0)
 -- CPU_WriteMem(4 bytes @ 0xE000EDFC) -- CPU_WriteMem(4 bytes @ 0xE000EDFC) -- CPU_WriteMem(4 bytes @ 0xE000EDFC) -- CPU_WriteMem(4 bytes @ 0xE0001020) -- CPU_WriteMem(4 bytes @ 0xE0001024) -- CPU_WriteMem(4 bytes @ 0xE0001028) -- CPU_ReadMem(4 bytes @ 0xE0001000) -- CPU_WriteMem(4 bytes @ 0xE0001000) -- CPU_WriteMem(4 bytes @ 0xE000EDFC) -- CPU_WriteMem(4 bytes @ 0xE0001028) -- CPU_ReadMem(4 bytes @ 0x00000004) -- CPU_ReadMem(4 bytes @ 0xE0002000) -- CPU_ReadMem(4 bytes @ 0xE0002008)
 -- CPU_ReadMem(4 bytes @ 0xE000200C) -- CPU_ReadMem(4 bytes @ 0xE0002010) -- CPU_ReadMem(4 bytes @ 0xE0002014) -- CPU_WriteMem(4 bytes @ 0xE0002000) -- CPU_WriteMem(4 bytes @ 0xE0002008) -- CPU_WriteMem(4 bytes @ 0xE000200C) -- CPU_WriteMem(4 bytes @ 0xE0002010) -- CPU_WriteMem(4 bytes @ 0xE0002014) -- CPU_ReadMem(4 bytes @ 0xE0001000) -- CPU_WriteMem(4 bytes @ 0xE0001000) -- CPU_WriteMem(4 bytes @ 0xE0002000) -- CPU_WriteMem(4 bytes @ 0xE0002008) -- CPU_WriteMem(4 bytes @ 0xE000200C)
 -- CPU_WriteMem(4 bytes @ 0xE0002010) -- CPU_WriteMem(4 bytes @ 0xE0002014) -- CPU_WriteMem(4 bytes @ 0xE0002000) -- CPU_ReadMem(4 bytes @ 0xE000EDFC) -- CPU_ReadMem(4 bytes @ 0xE0001000) -- CPU_WriteMem(4 bytes @ 0xE0001000) (0235ms, 0815ms total)
T5A60 000:862 JLINK_Halt()  returns 0x00 (0000ms, 0815ms total)
T5A60 000:862 JLINK_IsHalted()  returns TRUE (0000ms, 0815ms total)
T5A60 000:862 JLINK_ReadMemU32(0xE000EDF0, 0x0001 Items, ...) -- CPU_ReadMem(4 bytes @ 0xE000EDF0) - Data: 03 00 03 01  returns 0x01 (0001ms, 0816ms total)
T5A60 000:863 JLINK_WriteU32(0xE000EDF0, 0xA05F0003) -- CPU_WriteMem(4 bytes @ 0xE000EDF0)  returns 0x00 (0000ms, 0816ms total)
T5A60 000:864 JLINK_WriteU32(0xE000EDFC, 0x01000000) -- CPU_WriteMem(4 bytes @ 0xE000EDFC)  returns 0x00 (0000ms, 0817ms total)
T5A60 000:895 JLINK_GetHWStatus(...)  returns 0x00 (0000ms, 0817ms total)
T5A60 000:908 JLINK_GetNumBPUnits(Type = 0xFFFFFF00)  returns 0x04 (0000ms, 0817ms total)
T5A60 000:908 JLINK_GetNumBPUnits(Type = 0xF0)  returns 0x2000 (0000ms, 0817ms total)
T5A60 000:908 JLINK_GetNumWPUnits()  returns 0x02 (0000ms, 0817ms total)
T5A60 000:919 JLINK_GetSpeed()  returns 0xFA0 (0000ms, 0817ms total)
T5A60 000:923 JLINK_ReadMemU32(0xE000E004, 0x0001 Items, ...) -- CPU_ReadMem(4 bytes @ 0xE000E004) - Data: 00 00 00 00  returns 0x01 (0000ms, 0817ms total)
T5A60 000:924 JLINK_Halt()  returns 0x00 (0000ms, 0817ms total)
T5A60 000:924 JLINK_IsHalted()  returns TRUE (0000ms, 0817ms total)
T5A60 000:925 JLINK_WriteMem(0x10000000, 0x0170 Bytes, ...) - Data: 00 BE 0A E0 0D 78 2D 06 68 40 08 24 40 00 00 D3 ... -- CPU_WriteMem(368 bytes @ 0x10000000)  returns 0x170 (0003ms, 0820ms total)
T5A60 000:928 JLINK_WriteReg(R0, 0x00000000)  returns 0x00 (0000ms, 0820ms total)
T5A60 000:928 JLINK_WriteReg(R1, 0x00B71B00)  returns 0x00 (0000ms, 0820ms total)
T5A60 000:928 JLINK_WriteReg(R2, 0x00000001)  returns 0x00 (0000ms, 0820ms total)
T5A60 000:928 JLINK_WriteReg(R3, 0x00000000)  returns 0x00 (0000ms, 0820ms total)
T5A60 000:928 JLINK_WriteReg(R4, 0x00000000)  returns 0x00 (0000ms, 0820ms total)
T5A60 000:928 JLINK_WriteReg(R5, 0x00000000)  returns 0x00 (0000ms, 0820ms total)
T5A60 000:928 JLINK_WriteReg(R6, 0x00000000)  returns 0x00 (0000ms, 0820ms total)
T5A60 000:928 JLINK_WriteReg(R7, 0x00000000)  returns 0x00 (0000ms, 0820ms total)
T5A60 000:928 JLINK_WriteReg(R8, 0x00000000)  returns 0x00 (0000ms, 0820ms total)
T5A60 000:928 JLINK_WriteReg(R9, 0x10000168)  returns 0x00 (0000ms, 0820ms total)
T5A60 000:928 JLINK_WriteReg(R10, 0x00000000)  returns 0x00 (0000ms, 0820ms total)
T5A60 000:928 JLINK_WriteReg(R11, 0x00000000)  returns 0x00 (0000ms, 0820ms total)
T5A60 000:928 JLINK_WriteReg(R12, 0x00000000)  returns 0x00 (0000ms, 0820ms total)
T5A60 000:928 JLINK_WriteReg(R13 (SP), 0x10000FE0)  returns 0x00 (0000ms, 0820ms total)
T5A60 000:928 JLINK_WriteReg(R14, 0x10000001)  returns 0x00 (0000ms, 0820ms total)
T5A60 000:928 JLINK_WriteReg(R15 (PC), 0x1000003C)  returns 0x00 (0000ms, 0820ms total)
T5A60 000:928 JLINK_WriteReg(XPSR, 0x01000000)  returns 0x00 (0000ms, 0820ms total)
T5A60 000:928 JLINK_WriteReg(MSP, 0x10000FE0)  returns 0x00 (0000ms, 0820ms total)
T5A60 000:928 JLINK_WriteReg(PSP, 0x10000FE0)  returns 0x00 (0000ms, 0820ms total)
T5A60 000:928 JLINK_WriteReg(CFBP, 0x00000000)  returns 0x00 (0000ms, 0820ms total)
T5A60 000:928 JLINK_SetBPEx(Addr = 0x10000000, Type = 0xFFFFFFF2)  returns 0x00000001 (0000ms, 0820ms total)
T5A60 000:928 JLINK_Go() -- CPU_WriteMem(4 bytes @ 0xE0002000) -- CPU_ReadMem(4 bytes @ 0xE0001000) -- CPU_WriteMem(4 bytes @ 0xE0001000) -- CPU_WriteMem(4 bytes @ 0xE0002008) -- CPU_WriteMem(4 bytes @ 0xE000200C) -- CPU_WriteMem(4 bytes @ 0xE0002010) -- CPU_WriteMem(4 bytes @ 0xE0002014) -- CPU_WriteMem(4 bytes @ 0xE0001004) (0005ms, 0825ms total)
T5A60 000:933 JLINK_IsHalted()  returns TRUE (0002ms, 0827ms total)
T5A60 000:935 JLINK_ReadReg(R15 (PC))  returns 0x10000000 (0000ms, 0825ms total)
T5A60 000:935 JLINK_ClrBPEx(BPHandle = 0x00000001)  returns 0x00 (0000ms, 0825ms total)
T5A60 000:935 JLINK_ReadReg(R0)  returns 0x00000000 (0000ms, 0825ms total)
T5A60 000:935 JLINK_WriteReg(R0, 0x00000000)  returns 0x00 (0000ms, 0825ms total)
T5A60 000:935 JLINK_WriteReg(R1, 0x00000400)  returns 0x00 (0000ms, 0825ms total)
T5A60 000:935 JLINK_WriteReg(R2, 0x000000FF)  returns 0x00 (0000ms, 0825ms total)
T5A60 000:935 JLINK_WriteReg(R3, 0x00000000)  returns 0x00 (0000ms, 0825ms total)
T5A60 000:935 JLINK_WriteReg(R4, 0x00000000)  returns 0x00 (0000ms, 0825ms total)
T5A60 000:935 JLINK_WriteReg(R5, 0x00000000)  returns 0x00 (0000ms, 0825ms total)
T5A60 000:935 JLINK_WriteReg(R6, 0x00000000)  returns 0x00 (0000ms, 0825ms total)
T5A60 000:935 JLINK_WriteReg(R7, 0x00000000)  returns 0x00 (0000ms, 0825ms total)
T5A60 000:935 JLINK_WriteReg(R8, 0x00000000)  returns 0x00 (0001ms, 0826ms total)
T5A60 000:936 JLINK_WriteReg(R9, 0x10000168)  returns 0x00 (0000ms, 0826ms total)
T5A60 000:936 JLINK_WriteReg(R10, 0x00000000)  returns 0x00 (0000ms, 0826ms total)
T5A60 000:936 JLINK_WriteReg(R11, 0x00000000)  returns 0x00 (0000ms, 0826ms total)
T5A60 000:936 JLINK_WriteReg(R12, 0x00000000)  returns 0x00 (0000ms, 0826ms total)
T5A60 000:936 JLINK_WriteReg(R13 (SP), 0x10000FE0)  returns 0x00 (0000ms, 0826ms total)
T5A60 000:936 JLINK_WriteReg(R14, 0x10000001)  returns 0x00 (0000ms, 0826ms total)
T5A60 000:936 JLINK_WriteReg(R15 (PC), 0x10000020)  returns 0x00 (0000ms, 0826ms total)
T5A60 000:936 JLINK_WriteReg(XPSR, 0x01000000)  returns 0x00 (0000ms, 0826ms total)
T5A60 000:936 JLINK_WriteReg(MSP, 0x10000FE0)  returns 0x00 (0000ms, 0826ms total)
T5A60 000:936 JLINK_WriteReg(PSP, 0x10000FE0)  returns 0x00 (0000ms, 0826ms total)
T5A60 000:936 JLINK_WriteReg(CFBP, 0x00000000)  returns 0x00 (0000ms, 0826ms total)
T5A60 000:936 JLINK_SetBPEx(Addr = 0x10000000, Type = 0xFFFFFFF2)  returns 0x00000002 (0000ms, 0826ms total)
T5A60 000:936 JLINK_Go() -- CPU_WriteMem(4 bytes @ 0xE0002000) -- CPU_ReadMem(4 bytes @ 0xE0001000) -- CPU_WriteMem(4 bytes @ 0xE0001000) (0002ms, 0828ms total)
T5A60 000:938 JLINK_IsHalted()  returns TRUE (0002ms, 0830ms total)
T5A60 000:940 JLINK_ReadReg(R15 (PC))  returns 0x10000000 (0000ms, 0828ms total)
T5A60 000:940 JLINK_ClrBPEx(BPHandle = 0x00000002)  returns 0x00 (0000ms, 0828ms total)
T5A60 000:940 JLINK_ReadReg(R0)  returns 0x00000001 (0000ms, 0828ms total)
T5A60 000:940 JLINK_WriteReg(R0, 0x00000000)  returns 0x00 (0000ms, 0828ms total)
T5A60 000:940 JLINK_WriteReg(R1, 0x00000400)  returns 0x00 (0000ms, 0828ms total)
T5A60 000:940 JLINK_WriteReg(R2, 0x000000FF)  returns 0x00 (0000ms, 0828ms total)
T5A60 000:940 JLINK_WriteReg(R3, 0x00000000)  returns 0x00 (0000ms, 0828ms total)
T5A60 000:940 JLINK_WriteReg(R4, 0x00000000)  returns 0x00 (0000ms, 0828ms total)
T5A60 000:940 JLINK_WriteReg(R5, 0x00000000)  returns 0x00 (0000ms, 0828ms total)
T5A60 000:940 JLINK_WriteReg(R6, 0x00000000)  returns 0x00 (0000ms, 0828ms total)
T5A60 000:940 JLINK_WriteReg(R7, 0x00000000)  returns 0x00 (0000ms, 0828ms total)
T5A60 000:940 JLINK_WriteReg(R8, 0x00000000)  returns 0x00 (0000ms, 0828ms total)
T5A60 000:940 JLINK_WriteReg(R9, 0x10000168)  returns 0x00 (0000ms, 0828ms total)
T5A60 000:940 JLINK_WriteReg(R10, 0x00000000)  returns 0x00 (0000ms, 0828ms total)
T5A60 000:940 JLINK_WriteReg(R11, 0x00000000)  returns 0x00 (0000ms, 0828ms total)
T5A60 000:940 JLINK_WriteReg(R12, 0x00000000)  returns 0x00 (0000ms, 0828ms total)
T5A60 000:940 JLINK_WriteReg(R13 (SP), 0x10000FE0)  returns 0x00 (0000ms, 0828ms total)
T5A60 000:940 JLINK_WriteReg(R14, 0x10000001)  returns 0x00 (0000ms, 0828ms total)
T5A60 000:940 JLINK_WriteReg(R15 (PC), 0x100000A4)  returns 0x00 (0000ms, 0828ms total)
T5A60 000:940 JLINK_WriteReg(XPSR, 0x01000000)  returns 0x00 (0000ms, 0828ms total)
T5A60 000:940 JLINK_WriteReg(MSP, 0x10000FE0)  returns 0x00 (0000ms, 0828ms total)
T5A60 000:940 JLINK_WriteReg(PSP, 0x10000FE0)  returns 0x00 (0000ms, 0828ms total)
T5A60 000:940 JLINK_WriteReg(CFBP, 0x00000000)  returns 0x00 (0000ms, 0828ms total)
T5A60 000:940 JLINK_SetBPEx(Addr = 0x10000000, Type = 0xFFFFFFF2)  returns 0x00000003 (0000ms, 0828ms total)
T5A60 000:940 JLINK_Go() -- CPU_WriteMem(4 bytes @ 0xE0002000) -- CPU_ReadMem(4 bytes @ 0xE0001000) -- CPU_WriteMem(4 bytes @ 0xE0001000) (0002ms, 0830ms total)
T5A60 000:942 JLINK_IsHalted()  returns FALSE (0000ms, 0830ms total)
T5A60 000:982 JLINK_IsHalted()  returns FALSE (0000ms, 0830ms total)
T5A60 000:984 JLINK_IsHalted()  returns FALSE (0000ms, 0830ms total)
T5A60 000:988 JLINK_IsHalted()  returns FALSE (0000ms, 0830ms total)
T5A60 000:990 JLINK_IsHalted()  returns FALSE (0000ms, 0830ms total)
T5A60 000:992 JLINK_IsHalted()  returns FALSE (0000ms, 0830ms total)
T5A60 000:994 JLINK_IsHalted()  returns FALSE (0000ms, 0830ms total)
T5A60 000:997 JLINK_IsHalted()  returns FALSE (0000ms, 0830ms total)
T5A60 000:999 JLINK_IsHalted()  returns FALSE (0000ms, 0830ms total)
T5A60 001:002 JLINK_IsHalted()  returns FALSE (0000ms, 0830ms total)
T5A60 001:004 JLINK_IsHalted()  returns FALSE (0000ms, 0830ms total)
T5A60 001:006 JLINK_IsHalted()  returns FALSE (0000ms, 0830ms total)
T5A60 001:009 JLINK_IsHalted()  returns FALSE (0000ms, 0830ms total)
T5A60 001:011 JLINK_IsHalted()  returns FALSE (0000ms, 0830ms total)
T5A60 001:012 JLINK_IsHalted()  returns FALSE (0000ms, 0830ms total)
T5A60 001:015 JLINK_IsHalted()  returns FALSE (0000ms, 0830ms total)
T5A60 001:018 JLINK_IsHalted()  returns FALSE (0000ms, 0830ms total)
T5A60 001:020 JLINK_IsHalted()  returns FALSE (0000ms, 0830ms total)
T5A60 001:022 JLINK_IsHalted()  returns FALSE (0000ms, 0830ms total)
T5A60 001:024 JLINK_IsHalted()  returns FALSE (0000ms, 0830ms total)
T5A60 001:027 JLINK_IsHalted()  returns FALSE (0000ms, 0830ms total)
T5A60 001:029 JLINK_IsHalted()  returns FALSE (0000ms, 0830ms total)
T5A60 001:031 JLINK_IsHalted()  returns FALSE (0000ms, 0830ms total)
T5A60 001:033 JLINK_IsHalted()  returns FALSE (0000ms, 0830ms total)
T5A60 001:035 JLINK_IsHalted()  returns FALSE (0000ms, 0830ms total)
T5A60 001:037 JLINK_IsHalted()  returns FALSE (0000ms, 0830ms total)
T5A60 001:039 JLINK_IsHalted()  returns FALSE (0000ms, 0830ms total)
T5A60 001:042 JLINK_IsHalted()  returns FALSE (0000ms, 0830ms total)
T5A60 001:044 JLINK_IsHalted()  returns TRUE (0002ms, 0832ms total)
T5A60 001:046 JLINK_ReadReg(R15 (PC))  returns 0x10000000 (0000ms, 0830ms total)
T5A60 001:046 JLINK_ClrBPEx(BPHandle = 0x00000003)  returns 0x00 (0000ms, 0830ms total)
T5A60 001:046 JLINK_ReadReg(R0)  returns 0x00000000 (0000ms, 0830ms total)
T5A60 001:046 JLINK_WriteReg(R0, 0x00000400)  returns 0x00 (0000ms, 0830ms total)
T5A60 001:046 JLINK_WriteReg(R1, 0x00000400)  returns 0x00 (0000ms, 0830ms total)
T5A60 001:046 JLINK_WriteReg(R2, 0x000000FF)  returns 0x00 (0000ms, 0830ms total)
T5A60 001:046 JLINK_WriteReg(R3, 0x00000000)  returns 0x00 (0000ms, 0830ms total)
T5A60 001:046 JLINK_WriteReg(R4, 0x00000000)  returns 0x00 (0000ms, 0830ms total)
T5A60 001:046 JLINK_WriteReg(R5, 0x00000000)  returns 0x00 (0000ms, 0830ms total)
T5A60 001:046 JLINK_WriteReg(R6, 0x00000000)  returns 0x00 (0000ms, 0830ms total)
T5A60 001:046 JLINK_WriteReg(R7, 0x00000000)  returns 0x00 (0000ms, 0830ms total)
T5A60 001:046 JLINK_WriteReg(R8, 0x00000000)  returns 0x00 (0000ms, 0830ms total)
T5A60 001:046 JLINK_WriteReg(R9, 0x10000168)  returns 0x00 (0000ms, 0830ms total)
T5A60 001:046 JLINK_WriteReg(R10, 0x00000000)  returns 0x00 (0000ms, 0830ms total)
T5A60 001:046 JLINK_WriteReg(R11, 0x00000000)  returns 0x00 (0000ms, 0830ms total)
T5A60 001:046 JLINK_WriteReg(R12, 0x00000000)  returns 0x00 (0000ms, 0830ms total)
T5A60 001:046 JLINK_WriteReg(R13 (SP), 0x10000FE0)  returns 0x00 (0000ms, 0830ms total)
T5A60 001:046 JLINK_WriteReg(R14, 0x10000001)  returns 0x00 (0000ms, 0830ms total)
T5A60 001:046 JLINK_WriteReg(R15 (PC), 0x10000020)  returns 0x00 (0000ms, 0830ms total)
T5A60 001:046 JLINK_WriteReg(XPSR, 0x01000000)  returns 0x00 (0000ms, 0830ms total)
T5A60 001:046 JLINK_WriteReg(MSP, 0x10000FE0)  returns 0x00 (0000ms, 0830ms total)
T5A60 001:046 JLINK_WriteReg(PSP, 0x10000FE0)  returns 0x00 (0000ms, 0830ms total)
T5A60 001:046 JLINK_WriteReg(CFBP, 0x00000000)  returns 0x00 (0000ms, 0830ms total)
T5A60 001:046 JLINK_SetBPEx(Addr = 0x10000000, Type = 0xFFFFFFF2)  returns 0x00000004 (0000ms, 0830ms total)
T5A60 001:046 JLINK_Go() -- CPU_WriteMem(4 bytes @ 0xE0002000) -- CPU_ReadMem(4 bytes @ 0xE0001000) -- CPU_WriteMem(4 bytes @ 0xE0001000) (0003ms, 0833ms total)
T5A60 001:049 JLINK_IsHalted()  returns TRUE (0002ms, 0835ms total)
T5A60 001:051 JLINK_ReadReg(R15 (PC))  returns 0x10000000 (0000ms, 0833ms total)
T5A60 001:051 JLINK_ClrBPEx(BPHandle = 0x00000004)  returns 0x00 (0000ms, 0833ms total)
T5A60 001:051 JLINK_ReadReg(R0)  returns 0x00000001 (0000ms, 0833ms total)
T5A60 001:051 JLINK_WriteReg(R0, 0x00000400)  returns 0x00 (0000ms, 0833ms total)
T5A60 001:051 JLINK_WriteReg(R1, 0x00000400)  returns 0x00 (0000ms, 0833ms total)
T5A60 001:051 JLINK_WriteReg(R2, 0x000000FF)  returns 0x00 (0000ms, 0833ms total)
T5A60 001:051 JLINK_WriteReg(R3, 0x00000000)  returns 0x00 (0000ms, 0833ms total)
T5A60 001:051 JLINK_WriteReg(R4, 0x00000000)  returns 0x00 (0000ms, 0833ms total)
T5A60 001:051 JLINK_WriteReg(R5, 0x00000000)  returns 0x00 (0000ms, 0833ms total)
T5A60 001:051 JLINK_WriteReg(R6, 0x00000000)  returns 0x00 (0000ms, 0833ms total)
T5A60 001:051 JLINK_WriteReg(R7, 0x00000000)  returns 0x00 (0000ms, 0833ms total)
T5A60 001:051 JLINK_WriteReg(R8, 0x00000000)  returns 0x00 (0000ms, 0833ms total)
T5A60 001:051 JLINK_WriteReg(R9, 0x10000168)  returns 0x00 (0000ms, 0833ms total)
T5A60 001:051 JLINK_WriteReg(R10, 0x00000000)  returns 0x00 (0000ms, 0833ms total)
T5A60 001:051 JLINK_WriteReg(R11, 0x00000000)  returns 0x00 (0000ms, 0833ms total)
T5A60 001:051 JLINK_WriteReg(R12, 0x00000000)  returns 0x00 (0000ms, 0833ms total)
T5A60 001:051 JLINK_WriteReg(R13 (SP), 0x10000FE0)  returns 0x00 (0000ms, 0833ms total)
T5A60 001:051 JLINK_WriteReg(R14, 0x10000001)  returns 0x00 (0000ms, 0833ms total)
T5A60 001:051 JLINK_WriteReg(R15 (PC), 0x100000A4)  returns 0x00 (0000ms, 0833ms total)
T5A60 001:051 JLINK_WriteReg(XPSR, 0x01000000)  returns 0x00 (0000ms, 0833ms total)
T5A60 001:051 JLINK_WriteReg(MSP, 0x10000FE0)  returns 0x00 (0000ms, 0833ms total)
T5A60 001:051 JLINK_WriteReg(PSP, 0x10000FE0)  returns 0x00 (0000ms, 0833ms total)
T5A60 001:051 JLINK_WriteReg(CFBP, 0x00000000)  returns 0x00 (0000ms, 0833ms total)
T5A60 001:051 JLINK_SetBPEx(Addr = 0x10000000, Type = 0xFFFFFFF2)  returns 0x00000005 (0000ms, 0833ms total)
T5A60 001:051 JLINK_Go() -- CPU_WriteMem(4 bytes @ 0xE0002000) -- CPU_ReadMem(4 bytes @ 0xE0001000) -- CPU_WriteMem(4 bytes @ 0xE0001000) (0002ms, 0835ms total)
T5A60 001:053 JLINK_IsHalted()  returns FALSE (0000ms, 0835ms total)
T5A60 001:055 JLINK_IsHalted()  returns FALSE (0000ms, 0835ms total)
T5A60 001:057 JLINK_IsHalted()  returns FALSE (0000ms, 0835ms total)
T5A60 001:061 JLINK_IsHalted()  returns FALSE (0000ms, 0835ms total)
T5A60 001:063 JLINK_IsHalted()  returns FALSE (0000ms, 0835ms total)
T5A60 001:065 JLINK_IsHalted()  returns FALSE (0000ms, 0835ms total)
T5A60 001:067 JLINK_IsHalted()  returns FALSE (0000ms, 0835ms total)
T5A60 001:069 JLINK_IsHalted()  returns FALSE (0000ms, 0835ms total)
T5A60 001:071 JLINK_IsHalted()  returns FALSE (0000ms, 0835ms total)
T5A60 001:073 JLINK_IsHalted()  returns FALSE (0000ms, 0835ms total)
T5A60 001:075 JLINK_IsHalted()  returns FALSE (0000ms, 0835ms total)
T5A60 001:078 JLINK_IsHalted()  returns FALSE (0000ms, 0835ms total)
T5A60 001:080 JLINK_IsHalted()  returns FALSE (0000ms, 0835ms total)
T5A60 001:082 JLINK_IsHalted()  returns FALSE (0000ms, 0835ms total)
T5A60 001:084 JLINK_IsHalted()  returns FALSE (0000ms, 0835ms total)
T5A60 001:086 JLINK_IsHalted()  returns FALSE (0000ms, 0835ms total)
T5A60 001:088 JLINK_IsHalted()  returns FALSE (0000ms, 0835ms total)
T5A60 001:091 JLINK_IsHalted()  returns FALSE (0000ms, 0835ms total)
T5A60 001:093 JLINK_IsHalted()  returns FALSE (0000ms, 0835ms total)
T5A60 001:095 JLINK_IsHalted()  returns FALSE (0000ms, 0835ms total)
T5A60 001:097 JLINK_IsHalted()  returns FALSE (0000ms, 0835ms total)
T5A60 001:099 JLINK_IsHalted()  returns FALSE (0000ms, 0835ms total)
T5A60 001:101 JLINK_IsHalted()  returns FALSE (0000ms, 0835ms total)
T5A60 001:103 JLINK_IsHalted()  returns FALSE (0000ms, 0835ms total)
T5A60 001:105 JLINK_IsHalted()  returns FALSE (0000ms, 0835ms total)
T5A60 001:108 JLINK_IsHalted()  returns FALSE (0000ms, 0835ms total)
T5A60 001:110 JLINK_IsHalted()  returns FALSE (0000ms, 0835ms total)
T5A60 001:112 JLINK_IsHalted()  returns FALSE (0000ms, 0835ms total)
T5A60 001:114 JLINK_IsHalted()  returns FALSE (0000ms, 0835ms total)
T5A60 001:116 JLINK_IsHalted()  returns FALSE (0000ms, 0835ms total)
T5A60 001:118 JLINK_IsHalted()  returns FALSE (0000ms, 0835ms total)
T5A60 001:123 JLINK_IsHalted()  returns FALSE (0000ms, 0835ms total)
T5A60 001:125 JLINK_IsHalted()  returns FALSE (0000ms, 0835ms total)
T5A60 001:127 JLINK_IsHalted()  returns FALSE (0000ms, 0835ms total)
T5A60 001:129 JLINK_IsHalted()  returns FALSE (0000ms, 0835ms total)
T5A60 001:131 JLINK_IsHalted()  returns FALSE (0000ms, 0835ms total)
T5A60 001:133 JLINK_IsHalted()  returns FALSE (0000ms, 0835ms total)
T5A60 001:135 JLINK_IsHalted()  returns FALSE (0000ms, 0835ms total)
T5A60 001:138 JLINK_IsHalted()  returns FALSE (0000ms, 0835ms total)
T5A60 001:140 JLINK_IsHalted()  returns FALSE (0000ms, 0835ms total)
T5A60 001:142 JLINK_IsHalted()  returns FALSE (0000ms, 0835ms total)
T5A60 001:144 JLINK_IsHalted()  returns FALSE (0000ms, 0835ms total)
T5A60 001:146 JLINK_IsHalted()  returns FALSE (0000ms, 0835ms total)
T5A60 001:148 JLINK_IsHalted()  returns FALSE (0000ms, 0835ms total)
T5A60 001:150 JLINK_IsHalted()  returns FALSE (0000ms, 0835ms total)
T5A60 001:154 JLINK_IsHalted()  returns TRUE (0002ms, 0837ms total)
T5A60 001:156 JLINK_ReadReg(R15 (PC))  returns 0x10000000 (0000ms, 0835ms total)
T5A60 001:156 JLINK_ClrBPEx(BPHandle = 0x00000005)  returns 0x00 (0000ms, 0835ms total)
T5A60 001:156 JLINK_ReadReg(R0)  returns 0x00000000 (0000ms, 0835ms total)
T5A60 001:156 JLINK_WriteReg(R0, 0x00000800)  returns 0x00 (0000ms, 0835ms total)
T5A60 001:156 JLINK_WriteReg(R1, 0x00000400)  returns 0x00 (0000ms, 0835ms total)
T5A60 001:156 JLINK_WriteReg(R2, 0x000000FF)  returns 0x00 (0000ms, 0835ms total)
T5A60 001:156 JLINK_WriteReg(R3, 0x00000000)  returns 0x00 (0000ms, 0835ms total)
T5A60 001:156 JLINK_WriteReg(R4, 0x00000000)  returns 0x00 (0000ms, 0835ms total)
T5A60 001:156 JLINK_WriteReg(R5, 0x00000000)  returns 0x00 (0000ms, 0835ms total)
T5A60 001:156 JLINK_WriteReg(R6, 0x00000000)  returns 0x00 (0000ms, 0835ms total)
T5A60 001:156 JLINK_WriteReg(R7, 0x00000000)  returns 0x00 (0000ms, 0835ms total)
T5A60 001:156 JLINK_WriteReg(R8, 0x00000000)  returns 0x00 (0000ms, 0835ms total)
T5A60 001:156 JLINK_WriteReg(R9, 0x10000168)  returns 0x00 (0000ms, 0835ms total)
T5A60 001:156 JLINK_WriteReg(R10, 0x00000000)  returns 0x00 (0000ms, 0835ms total)
T5A60 001:156 JLINK_WriteReg(R11, 0x00000000)  returns 0x00 (0000ms, 0835ms total)
T5A60 001:156 JLINK_WriteReg(R12, 0x00000000)  returns 0x00 (0000ms, 0835ms total)
T5A60 001:156 JLINK_WriteReg(R13 (SP), 0x10000FE0)  returns 0x00 (0000ms, 0835ms total)
T5A60 001:156 JLINK_WriteReg(R14, 0x10000001)  returns 0x00 (0000ms, 0835ms total)
T5A60 001:156 JLINK_WriteReg(R15 (PC), 0x10000020)  returns 0x00 (0000ms, 0835ms total)
T5A60 001:156 JLINK_WriteReg(XPSR, 0x01000000)  returns 0x00 (0000ms, 0835ms total)
T5A60 001:156 JLINK_WriteReg(MSP, 0x10000FE0)  returns 0x00 (0000ms, 0835ms total)
T5A60 001:156 JLINK_WriteReg(PSP, 0x10000FE0)  returns 0x00 (0000ms, 0835ms total)
T5A60 001:156 JLINK_WriteReg(CFBP, 0x00000000)  returns 0x00 (0000ms, 0835ms total)
T5A60 001:156 JLINK_SetBPEx(Addr = 0x10000000, Type = 0xFFFFFFF2)  returns 0x00000006 (0000ms, 0835ms total)
T5A60 001:156 JLINK_Go() -- CPU_WriteMem(4 bytes @ 0xE0002000) -- CPU_ReadMem(4 bytes @ 0xE0001000) -- CPU_WriteMem(4 bytes @ 0xE0001000) (0003ms, 0838ms total)
T5A60 001:159 JLINK_IsHalted()  returns TRUE (0002ms, 0840ms total)
T5A60 001:161 JLINK_ReadReg(R15 (PC))  returns 0x10000000 (0000ms, 0838ms total)
T5A60 001:161 JLINK_ClrBPEx(BPHandle = 0x00000006)  returns 0x00 (0000ms, 0838ms total)
T5A60 001:161 JLINK_ReadReg(R0)  returns 0x00000001 (0000ms, 0838ms total)
T5A60 001:161 JLINK_WriteReg(R0, 0x00000800)  returns 0x00 (0000ms, 0838ms total)
T5A60 001:161 JLINK_WriteReg(R1, 0x00000400)  returns 0x00 (0000ms, 0838ms total)
T5A60 001:161 JLINK_WriteReg(R2, 0x000000FF)  returns 0x00 (0000ms, 0838ms total)
T5A60 001:161 JLINK_WriteReg(R3, 0x00000000)  returns 0x00 (0000ms, 0838ms total)
T5A60 001:161 JLINK_WriteReg(R4, 0x00000000)  returns 0x00 (0000ms, 0838ms total)
T5A60 001:161 JLINK_WriteReg(R5, 0x00000000)  returns 0x00 (0000ms, 0838ms total)
T5A60 001:161 JLINK_WriteReg(R6, 0x00000000)  returns 0x00 (0000ms, 0838ms total)
T5A60 001:161 JLINK_WriteReg(R7, 0x00000000)  returns 0x00 (0000ms, 0838ms total)
T5A60 001:161 JLINK_WriteReg(R8, 0x00000000)  returns 0x00 (0000ms, 0838ms total)
T5A60 001:161 JLINK_WriteReg(R9, 0x10000168)  returns 0x00 (0000ms, 0838ms total)
T5A60 001:161 JLINK_WriteReg(R10, 0x00000000)  returns 0x00 (0000ms, 0838ms total)
T5A60 001:161 JLINK_WriteReg(R11, 0x00000000)  returns 0x00 (0000ms, 0838ms total)
T5A60 001:161 JLINK_WriteReg(R12, 0x00000000)  returns 0x00 (0000ms, 0838ms total)
T5A60 001:161 JLINK_WriteReg(R13 (SP), 0x10000FE0)  returns 0x00 (0000ms, 0838ms total)
T5A60 001:161 JLINK_WriteReg(R14, 0x10000001)  returns 0x00 (0000ms, 0838ms total)
T5A60 001:161 JLINK_WriteReg(R15 (PC), 0x100000A4)  returns 0x00 (0000ms, 0838ms total)
T5A60 001:161 JLINK_WriteReg(XPSR, 0x01000000)  returns 0x00 (0000ms, 0838ms total)
T5A60 001:161 JLINK_WriteReg(MSP, 0x10000FE0)  returns 0x00 (0000ms, 0838ms total)
T5A60 001:161 JLINK_WriteReg(PSP, 0x10000FE0)  returns 0x00 (0000ms, 0838ms total)
T5A60 001:161 JLINK_WriteReg(CFBP, 0x00000000)  returns 0x00 (0000ms, 0838ms total)
T5A60 001:161 JLINK_SetBPEx(Addr = 0x10000000, Type = 0xFFFFFFF2)  returns 0x00000007 (0000ms, 0838ms total)
T5A60 001:161 JLINK_Go() -- CPU_WriteMem(4 bytes @ 0xE0002000) -- CPU_ReadMem(4 bytes @ 0xE0001000) -- CPU_WriteMem(4 bytes @ 0xE0001000) (0002ms, 0840ms total)
T5A60 001:163 JLINK_IsHalted()  returns FALSE (0000ms, 0840ms total)
T5A60 001:165 JLINK_IsHalted()  returns FALSE (0000ms, 0840ms total)
T5A60 001:167 JLINK_IsHalted()  returns FALSE (0000ms, 0840ms total)
T5A60 001:170 JLINK_IsHalted()  returns FALSE (0000ms, 0840ms total)
T5A60 001:172 JLINK_IsHalted()  returns FALSE (0000ms, 0840ms total)
T5A60 001:174 JLINK_IsHalted()  returns FALSE (0000ms, 0840ms total)
T5A60 001:176 JLINK_IsHalted()  returns FALSE (0000ms, 0840ms total)
T5A60 001:178 JLINK_IsHalted()  returns FALSE (0000ms, 0840ms total)
T5A60 001:180 JLINK_IsHalted()  returns FALSE (0000ms, 0840ms total)
T5A60 001:182 JLINK_IsHalted()  returns FALSE (0000ms, 0840ms total)
T5A60 001:184 JLINK_IsHalted()  returns FALSE (0000ms, 0840ms total)
T5A60 001:189 JLINK_IsHalted()  returns FALSE (0000ms, 0840ms total)
T5A60 001:191 JLINK_IsHalted()  returns FALSE (0000ms, 0840ms total)
T5A60 001:193 JLINK_IsHalted()  returns FALSE (0000ms, 0840ms total)
T5A60 001:195 JLINK_IsHalted()  returns FALSE (0000ms, 0840ms total)
T5A60 001:199 JLINK_IsHalted()  returns FALSE (0000ms, 0840ms total)
T5A60 001:201 JLINK_IsHalted()  returns FALSE (0000ms, 0840ms total)
T5A60 001:203 JLINK_IsHalted()  returns FALSE (0000ms, 0840ms total)
T5A60 001:205 JLINK_IsHalted()  returns FALSE (0000ms, 0840ms total)
T5A60 001:207 JLINK_IsHalted()  returns FALSE (0000ms, 0840ms total)
T5A60 001:209 JLINK_IsHalted()  returns FALSE (0000ms, 0840ms total)
T5A60 001:211 JLINK_IsHalted()  returns FALSE (0000ms, 0840ms total)
T5A60 001:213 JLINK_IsHalted()  returns FALSE (0000ms, 0840ms total)
T5A60 001:216 JLINK_IsHalted()  returns FALSE (0000ms, 0840ms total)
T5A60 001:218 JLINK_IsHalted()  returns FALSE (0000ms, 0840ms total)
T5A60 001:220 JLINK_IsHalted()  returns FALSE (0000ms, 0840ms total)
T5A60 001:222 JLINK_IsHalted()  returns FALSE (0000ms, 0840ms total)
T5A60 001:224 JLINK_IsHalted()  returns FALSE (0000ms, 0840ms total)
T5A60 001:226 JLINK_IsHalted()  returns FALSE (0000ms, 0840ms total)
T5A60 001:228 JLINK_IsHalted()  returns FALSE (0000ms, 0840ms total)
T5A60 001:233 JLINK_IsHalted()  returns FALSE (0000ms, 0840ms total)
T5A60 001:235 JLINK_IsHalted()  returns FALSE (0000ms, 0840ms total)
T5A60 001:237 JLINK_IsHalted()  returns FALSE (0000ms, 0840ms total)
T5A60 001:239 JLINK_IsHalted()  returns FALSE (0000ms, 0840ms total)
T5A60 001:241 JLINK_IsHalted()  returns FALSE (0000ms, 0840ms total)
T5A60 001:243 JLINK_IsHalted()  returns FALSE (0000ms, 0840ms total)
T5A60 001:245 JLINK_IsHalted()  returns FALSE (0000ms, 0840ms total)
T5A60 001:248 JLINK_IsHalted()  returns FALSE (0000ms, 0840ms total)
T5A60 001:250 JLINK_IsHalted()  returns FALSE (0000ms, 0840ms total)
T5A60 001:252 JLINK_IsHalted()  returns FALSE (0000ms, 0840ms total)
T5A60 001:254 JLINK_IsHalted()  returns FALSE (0000ms, 0840ms total)
T5A60 001:256 JLINK_IsHalted()  returns FALSE (0000ms, 0840ms total)
T5A60 001:258 JLINK_IsHalted()  returns FALSE (0000ms, 0840ms total)
T5A60 001:260 JLINK_IsHalted()  returns FALSE (0000ms, 0840ms total)
T5A60 001:264 JLINK_IsHalted()  returns TRUE (0002ms, 0842ms total)
T5A60 001:266 JLINK_ReadReg(R15 (PC))  returns 0x10000000 (0000ms, 0840ms total)
T5A60 001:266 JLINK_ClrBPEx(BPHandle = 0x00000007)  returns 0x00 (0000ms, 0840ms total)
T5A60 001:266 JLINK_ReadReg(R0)  returns 0x00000000 (0000ms, 0840ms total)
T5A60 001:266 JLINK_WriteReg(R0, 0x00000C00)  returns 0x00 (0000ms, 0840ms total)
T5A60 001:266 JLINK_WriteReg(R1, 0x00000400)  returns 0x00 (0000ms, 0840ms total)
T5A60 001:266 JLINK_WriteReg(R2, 0x000000FF)  returns 0x00 (0000ms, 0840ms total)
T5A60 001:266 JLINK_WriteReg(R3, 0x00000000)  returns 0x00 (0000ms, 0840ms total)
T5A60 001:266 JLINK_WriteReg(R4, 0x00000000)  returns 0x00 (0000ms, 0840ms total)
T5A60 001:266 JLINK_WriteReg(R5, 0x00000000)  returns 0x00 (0000ms, 0840ms total)
T5A60 001:266 JLINK_WriteReg(R6, 0x00000000)  returns 0x00 (0000ms, 0840ms total)
T5A60 001:266 JLINK_WriteReg(R7, 0x00000000)  returns 0x00 (0000ms, 0840ms total)
T5A60 001:266 JLINK_WriteReg(R8, 0x00000000)  returns 0x00 (0000ms, 0840ms total)
T5A60 001:266 JLINK_WriteReg(R9, 0x10000168)  returns 0x00 (0000ms, 0840ms total)
T5A60 001:266 JLINK_WriteReg(R10, 0x00000000)  returns 0x00 (0000ms, 0840ms total)
T5A60 001:266 JLINK_WriteReg(R11, 0x00000000)  returns 0x00 (0000ms, 0840ms total)
T5A60 001:266 JLINK_WriteReg(R12, 0x00000000)  returns 0x00 (0000ms, 0840ms total)
T5A60 001:266 JLINK_WriteReg(R13 (SP), 0x10000FE0)  returns 0x00 (0000ms, 0840ms total)
T5A60 001:266 JLINK_WriteReg(R14, 0x10000001)  returns 0x00 (0000ms, 0840ms total)
T5A60 001:266 JLINK_WriteReg(R15 (PC), 0x10000020)  returns 0x00 (0000ms, 0840ms total)
T5A60 001:266 JLINK_WriteReg(XPSR, 0x01000000)  returns 0x00 (0000ms, 0840ms total)
T5A60 001:266 JLINK_WriteReg(MSP, 0x10000FE0)  returns 0x00 (0000ms, 0840ms total)
T5A60 001:266 JLINK_WriteReg(PSP, 0x10000FE0)  returns 0x00 (0000ms, 0840ms total)
T5A60 001:266 JLINK_WriteReg(CFBP, 0x00000000)  returns 0x00 (0000ms, 0840ms total)
T5A60 001:266 JLINK_SetBPEx(Addr = 0x10000000, Type = 0xFFFFFFF2)  returns 0x00000008 (0000ms, 0840ms total)
T5A60 001:266 JLINK_Go() -- CPU_WriteMem(4 bytes @ 0xE0002000) -- CPU_ReadMem(4 bytes @ 0xE0001000) -- CPU_WriteMem(4 bytes @ 0xE0001000) (0003ms, 0843ms total)
T5A60 001:269 JLINK_IsHalted()  returns TRUE (0002ms, 0845ms total)
T5A60 001:271 JLINK_ReadReg(R15 (PC))  returns 0x10000000 (0000ms, 0843ms total)
T5A60 001:271 JLINK_ClrBPEx(BPHandle = 0x00000008)  returns 0x00 (0000ms, 0843ms total)
T5A60 001:271 JLINK_ReadReg(R0)  returns 0x00000001 (0000ms, 0843ms total)
T5A60 001:271 JLINK_WriteReg(R0, 0x00000C00)  returns 0x00 (0000ms, 0843ms total)
T5A60 001:271 JLINK_WriteReg(R1, 0x00000400)  returns 0x00 (0000ms, 0843ms total)
T5A60 001:271 JLINK_WriteReg(R2, 0x000000FF)  returns 0x00 (0000ms, 0843ms total)
T5A60 001:271 JLINK_WriteReg(R3, 0x00000000)  returns 0x00 (0000ms, 0843ms total)
T5A60 001:271 JLINK_WriteReg(R4, 0x00000000)  returns 0x00 (0000ms, 0843ms total)
T5A60 001:271 JLINK_WriteReg(R5, 0x00000000)  returns 0x00 (0000ms, 0843ms total)
T5A60 001:271 JLINK_WriteReg(R6, 0x00000000)  returns 0x00 (0000ms, 0843ms total)
T5A60 001:271 JLINK_WriteReg(R7, 0x00000000)  returns 0x00 (0000ms, 0843ms total)
T5A60 001:271 JLINK_WriteReg(R8, 0x00000000)  returns 0x00 (0000ms, 0843ms total)
T5A60 001:271 JLINK_WriteReg(R9, 0x10000168)  returns 0x00 (0000ms, 0843ms total)
T5A60 001:271 JLINK_WriteReg(R10, 0x00000000)  returns 0x00 (0000ms, 0843ms total)
T5A60 001:271 JLINK_WriteReg(R11, 0x00000000)  returns 0x00 (0000ms, 0843ms total)
T5A60 001:271 JLINK_WriteReg(R12, 0x00000000)  returns 0x00 (0000ms, 0843ms total)
T5A60 001:271 JLINK_WriteReg(R13 (SP), 0x10000FE0)  returns 0x00 (0000ms, 0843ms total)
T5A60 001:271 JLINK_WriteReg(R14, 0x10000001)  returns 0x00 (0000ms, 0843ms total)
T5A60 001:271 JLINK_WriteReg(R15 (PC), 0x100000A4)  returns 0x00 (0000ms, 0843ms total)
T5A60 001:271 JLINK_WriteReg(XPSR, 0x01000000)  returns 0x00 (0000ms, 0843ms total)
T5A60 001:271 JLINK_WriteReg(MSP, 0x10000FE0)  returns 0x00 (0000ms, 0843ms total)
T5A60 001:271 JLINK_WriteReg(PSP, 0x10000FE0)  returns 0x00 (0000ms, 0843ms total)
T5A60 001:271 JLINK_WriteReg(CFBP, 0x00000000)  returns 0x00 (0000ms, 0843ms total)
T5A60 001:271 JLINK_SetBPEx(Addr = 0x10000000, Type = 0xFFFFFFF2)  returns 0x00000009 (0000ms, 0843ms total)
T5A60 001:271 JLINK_Go() -- CPU_WriteMem(4 bytes @ 0xE0002000) -- CPU_ReadMem(4 bytes @ 0xE0001000) -- CPU_WriteMem(4 bytes @ 0xE0001000) (0002ms, 0845ms total)
T5A60 001:273 JLINK_IsHalted()  returns FALSE (0000ms, 0845ms total)
T5A60 001:275 JLINK_IsHalted()  returns FALSE (0000ms, 0845ms total)
T5A60 001:278 JLINK_IsHalted()  returns FALSE (0000ms, 0845ms total)
T5A60 001:280 JLINK_IsHalted()  returns FALSE (0000ms, 0845ms total)
T5A60 001:282 JLINK_IsHalted()  returns FALSE (0000ms, 0845ms total)
T5A60 001:284 JLINK_IsHalted()  returns FALSE (0000ms, 0845ms total)
T5A60 001:286 JLINK_IsHalted()  returns FALSE (0000ms, 0845ms total)
T5A60 001:288 JLINK_IsHalted()  returns FALSE (0000ms, 0845ms total)
T5A60 001:290 JLINK_IsHalted()  returns FALSE (0000ms, 0845ms total)
T5A60 001:292 JLINK_IsHalted()  returns FALSE (0000ms, 0845ms total)
T5A60 001:297 JLINK_IsHalted()  returns FALSE (0000ms, 0845ms total)
T5A60 001:299 JLINK_IsHalted()  returns FALSE (0000ms, 0845ms total)
T5A60 001:301 JLINK_IsHalted()  returns FALSE (0000ms, 0845ms total)
T5A60 001:303 JLINK_IsHalted()  returns FALSE (0000ms, 0845ms total)
T5A60 001:305 JLINK_IsHalted()  returns FALSE (0000ms, 0845ms total)
T5A60 001:307 JLINK_IsHalted()  returns FALSE (0000ms, 0845ms total)
T5A60 001:309 JLINK_IsHalted()  returns FALSE (0000ms, 0845ms total)
T5A60 001:312 JLINK_IsHalted()  returns FALSE (0000ms, 0845ms total)
T5A60 001:314 JLINK_IsHalted()  returns FALSE (0000ms, 0845ms total)
T5A60 001:316 JLINK_IsHalted()  returns FALSE (0000ms, 0845ms total)
T5A60 001:318 JLINK_IsHalted()  returns FALSE (0000ms, 0845ms total)
T5A60 001:320 JLINK_IsHalted()  returns FALSE (0000ms, 0845ms total)
T5A60 001:324 JLINK_IsHalted()  returns FALSE (0000ms, 0845ms total)
T5A60 001:326 JLINK_IsHalted()  returns FALSE (0000ms, 0845ms total)
T5A60 001:328 JLINK_IsHalted()  returns FALSE (0000ms, 0845ms total)
T5A60 001:330 JLINK_IsHalted()  returns FALSE (0000ms, 0845ms total)
T5A60 001:332 JLINK_IsHalted()  returns FALSE (0000ms, 0845ms total)
T5A60 001:334 JLINK_IsHalted()  returns FALSE (0000ms, 0845ms total)
T5A60 001:336 JLINK_IsHalted()  returns FALSE (0000ms, 0845ms total)
T5A60 001:341 JLINK_IsHalted()  returns FALSE (0000ms, 0845ms total)
T5A60 001:343 JLINK_IsHalted()  returns FALSE (0000ms, 0845ms total)
T5A60 001:345 JLINK_IsHalted()  returns FALSE (0000ms, 0845ms total)
T5A60 001:347 JLINK_IsHalted()  returns FALSE (0000ms, 0845ms total)
T5A60 001:349 JLINK_IsHalted()  returns FALSE (0000ms, 0845ms total)
T5A60 001:351 JLINK_IsHalted()  returns FALSE (0000ms, 0845ms total)
T5A60 001:353 JLINK_IsHalted()  returns FALSE (0000ms, 0845ms total)
T5A60 001:356 JLINK_IsHalted()  returns FALSE (0000ms, 0845ms total)
T5A60 001:358 JLINK_IsHalted()  returns FALSE (0000ms, 0845ms total)
T5A60 001:360 JLINK_IsHalted()  returns FALSE (0000ms, 0845ms total)
T5A60 001:362 JLINK_IsHalted()  returns FALSE (0000ms, 0845ms total)
T5A60 001:364 JLINK_IsHalted()  returns FALSE (0000ms, 0845ms total)
T5A60 001:366 JLINK_IsHalted()  returns FALSE (0000ms, 0845ms total)
T5A60 001:368 JLINK_IsHalted()  returns FALSE (0000ms, 0845ms total)
T5A60 001:371 JLINK_IsHalted()  returns FALSE (0000ms, 0845ms total)
T5A60 001:373 JLINK_IsHalted()  returns FALSE (0000ms, 0845ms total)
T5A60 001:375 JLINK_IsHalted()  returns TRUE (0002ms, 0847ms total)
T5A60 001:377 JLINK_ReadReg(R15 (PC))  returns 0x10000000 (0000ms, 0845ms total)
T5A60 001:377 JLINK_ClrBPEx(BPHandle = 0x00000009)  returns 0x00 (0000ms, 0845ms total)
T5A60 001:377 JLINK_ReadReg(R0)  returns 0x00000000 (0000ms, 0845ms total)
T5A60 001:377 JLINK_WriteReg(R0, 0x00000001)  returns 0x00 (0000ms, 0845ms total)
T5A60 001:377 JLINK_WriteReg(R1, 0x00000400)  returns 0x00 (0000ms, 0845ms total)
T5A60 001:377 JLINK_WriteReg(R2, 0x000000FF)  returns 0x00 (0000ms, 0845ms total)
T5A60 001:377 JLINK_WriteReg(R3, 0x00000000)  returns 0x00 (0000ms, 0845ms total)
T5A60 001:377 JLINK_WriteReg(R4, 0x00000000)  returns 0x00 (0000ms, 0845ms total)
T5A60 001:377 JLINK_WriteReg(R5, 0x00000000)  returns 0x00 (0000ms, 0845ms total)
T5A60 001:377 JLINK_WriteReg(R6, 0x00000000)  returns 0x00 (0000ms, 0845ms total)
T5A60 001:377 JLINK_WriteReg(R7, 0x00000000)  returns 0x00 (0000ms, 0845ms total)
T5A60 001:377 JLINK_WriteReg(R8, 0x00000000)  returns 0x00 (0000ms, 0845ms total)
T5A60 001:377 JLINK_WriteReg(R9, 0x10000168)  returns 0x00 (0000ms, 0845ms total)
T5A60 001:377 JLINK_WriteReg(R10, 0x00000000)  returns 0x00 (0000ms, 0845ms total)
T5A60 001:377 JLINK_WriteReg(R11, 0x00000000)  returns 0x00 (0000ms, 0845ms total)
T5A60 001:377 JLINK_WriteReg(R12, 0x00000000)  returns 0x00 (0000ms, 0845ms total)
T5A60 001:377 JLINK_WriteReg(R13 (SP), 0x10000FE0)  returns 0x00 (0000ms, 0845ms total)
T5A60 001:377 JLINK_WriteReg(R14, 0x10000001)  returns 0x00 (0000ms, 0845ms total)
T5A60 001:377 JLINK_WriteReg(R15 (PC), 0x10000060)  returns 0x00 (0000ms, 0845ms total)
T5A60 001:377 JLINK_WriteReg(XPSR, 0x01000000)  returns 0x00 (0000ms, 0845ms total)
T5A60 001:377 JLINK_WriteReg(MSP, 0x10000FE0)  returns 0x00 (0000ms, 0845ms total)
T5A60 001:377 JLINK_WriteReg(PSP, 0x10000FE0)  returns 0x00 (0000ms, 0845ms total)
T5A60 001:377 JLINK_WriteReg(CFBP, 0x00000000)  returns 0x00 (0000ms, 0845ms total)
T5A60 001:377 JLINK_SetBPEx(Addr = 0x10000000, Type = 0xFFFFFFF2)  returns 0x0000000A (0000ms, 0845ms total)
T5A60 001:377 JLINK_Go() -- CPU_WriteMem(4 bytes @ 0xE0002000) -- CPU_ReadMem(4 bytes @ 0xE0001000) -- CPU_WriteMem(4 bytes @ 0xE0001000) (0002ms, 0847ms total)
T5A60 001:379 JLINK_IsHalted()  returns TRUE (0002ms, 0849ms total)
T5A60 001:381 JLINK_ReadReg(R15 (PC))  returns 0x10000000 (0000ms, 0847ms total)
T5A60 001:381 JLINK_ClrBPEx(BPHandle = 0x0000000A)  returns 0x00 (0000ms, 0847ms total)
T5A60 001:381 JLINK_ReadReg(R0)  returns 0x00000000 (0000ms, 0847ms total)
T5A60 001:444 JLINK_WriteMem(0x10000000, 0x0170 Bytes, ...) - Data: 00 BE 0A E0 0D 78 2D 06 68 40 08 24 40 00 00 D3 ... -- CPU_WriteMem(368 bytes @ 0x10000000)  returns 0x170 (0003ms, 0850ms total)
T5A60 001:447 JLINK_WriteReg(R0, 0x00000000)  returns 0x00 (0000ms, 0850ms total)
T5A60 001:447 JLINK_WriteReg(R1, 0x00B71B00)  returns 0x00 (0000ms, 0850ms total)
T5A60 001:447 JLINK_WriteReg(R2, 0x00000002)  returns 0x00 (0000ms, 0850ms total)
T5A60 001:447 JLINK_WriteReg(R3, 0x00000000)  returns 0x00 (0000ms, 0850ms total)
T5A60 001:447 JLINK_WriteReg(R4, 0x00000000)  returns 0x00 (0000ms, 0850ms total)
T5A60 001:447 JLINK_WriteReg(R5, 0x00000000)  returns 0x00 (0000ms, 0850ms total)
T5A60 001:447 JLINK_WriteReg(R6, 0x00000000)  returns 0x00 (0000ms, 0850ms total)
T5A60 001:447 JLINK_WriteReg(R7, 0x00000000)  returns 0x00 (0000ms, 0850ms total)
T5A60 001:447 JLINK_WriteReg(R8, 0x00000000)  returns 0x00 (0000ms, 0850ms total)
T5A60 001:447 JLINK_WriteReg(R9, 0x10000168)  returns 0x00 (0000ms, 0850ms total)
T5A60 001:447 JLINK_WriteReg(R10, 0x00000000)  returns 0x00 (0000ms, 0850ms total)
T5A60 001:447 JLINK_WriteReg(R11, 0x00000000)  returns 0x00 (0000ms, 0850ms total)
T5A60 001:447 JLINK_WriteReg(R12, 0x00000000)  returns 0x00 (0000ms, 0850ms total)
T5A60 001:447 JLINK_WriteReg(R13 (SP), 0x10000FE0)  returns 0x00 (0000ms, 0850ms total)
T5A60 001:447 JLINK_WriteReg(R14, 0x10000001)  returns 0x00 (0000ms, 0850ms total)
T5A60 001:447 JLINK_WriteReg(R15 (PC), 0x1000003C)  returns 0x00 (0000ms, 0850ms total)
T5A60 001:447 JLINK_WriteReg(XPSR, 0x01000000)  returns 0x00 (0000ms, 0850ms total)
T5A60 001:447 JLINK_WriteReg(MSP, 0x10000FE0)  returns 0x00 (0000ms, 0850ms total)
T5A60 001:447 JLINK_WriteReg(PSP, 0x10000FE0)  returns 0x00 (0000ms, 0850ms total)
T5A60 001:447 JLINK_WriteReg(CFBP, 0x00000000)  returns 0x00 (0000ms, 0850ms total)
T5A60 001:448 JLINK_SetBPEx(Addr = 0x10000000, Type = 0xFFFFFFF2)  returns 0x0000000B (0000ms, 0850ms total)
T5A60 001:448 JLINK_Go() -- CPU_WriteMem(4 bytes @ 0xE0002000) -- CPU_ReadMem(4 bytes @ 0xE0001000) -- CPU_WriteMem(4 bytes @ 0xE0001000) (0002ms, 0852ms total)
T5A60 001:450 JLINK_IsHalted()  returns TRUE (0002ms, 0854ms total)
T5A60 001:452 JLINK_ReadReg(R15 (PC))  returns 0x10000000 (0000ms, 0852ms total)
T5A60 001:452 JLINK_ClrBPEx(BPHandle = 0x0000000B)  returns 0x00 (0000ms, 0852ms total)
T5A60 001:452 JLINK_ReadReg(R0)  returns 0x00000000 (0000ms, 0852ms total)
T5A60 001:453 JLINK_WriteMem(0x10000190, 0x0100 Bytes, ...) - Data: 80 05 00 10 9D 01 00 00 AD 01 00 00 A5 01 00 00 ... -- CPU_WriteMem(256 bytes @ 0x10000190)  returns 0x100 (0002ms, 0854ms total)
T5A60 001:455 JLINK_WriteReg(R0, 0x00000000)  returns 0x00 (0000ms, 0854ms total)
T5A60 001:455 JLINK_WriteReg(R1, 0x00000100)  returns 0x00 (0000ms, 0854ms total)
T5A60 001:455 JLINK_WriteReg(R2, 0x10000190)  returns 0x00 (0000ms, 0854ms total)
T5A60 001:455 JLINK_WriteReg(R3, 0x00000000)  returns 0x00 (0000ms, 0854ms total)
T5A60 001:455 JLINK_WriteReg(R4, 0x00000000)  returns 0x00 (0000ms, 0854ms total)
T5A60 001:455 JLINK_WriteReg(R5, 0x00000000)  returns 0x00 (0000ms, 0854ms total)
T5A60 001:455 JLINK_WriteReg(R6, 0x00000000)  returns 0x00 (0000ms, 0854ms total)
T5A60 001:455 JLINK_WriteReg(R7, 0x00000000)  returns 0x00 (0000ms, 0854ms total)
T5A60 001:455 JLINK_WriteReg(R8, 0x00000000)  returns 0x00 (0000ms, 0854ms total)
T5A60 001:455 JLINK_WriteReg(R9, 0x10000168)  returns 0x00 (0000ms, 0854ms total)
T5A60 001:455 JLINK_WriteReg(R10, 0x00000000)  returns 0x00 (0000ms, 0854ms total)
T5A60 001:455 JLINK_WriteReg(R11, 0x00000000)  returns 0x00 (0000ms, 0854ms total)
T5A60 001:455 JLINK_WriteReg(R12, 0x00000000)  returns 0x00 (0000ms, 0854ms total)
T5A60 001:455 JLINK_WriteReg(R13 (SP), 0x10000FE0)  returns 0x00 (0000ms, 0854ms total)
T5A60 001:455 JLINK_WriteReg(R14, 0x10000001)  returns 0x00 (0000ms, 0854ms total)
T5A60 001:455 JLINK_WriteReg(R15 (PC), 0x100000E6)  returns 0x00 (0000ms, 0854ms total)
T5A60 001:455 JLINK_WriteReg(XPSR, 0x01000000)  returns 0x00 (0000ms, 0854ms total)
T5A60 001:455 JLINK_WriteReg(MSP, 0x10000FE0)  returns 0x00 (0000ms, 0854ms total)
T5A60 001:455 JLINK_WriteReg(PSP, 0x10000FE0)  returns 0x00 (0000ms, 0854ms total)
T5A60 001:455 JLINK_WriteReg(CFBP, 0x00000000)  returns 0x00 (0001ms, 0855ms total)
T5A60 001:456 JLINK_SetBPEx(Addr = 0x10000000, Type = 0xFFFFFFF2)  returns 0x0000000C (0000ms, 0855ms total)
T5A60 001:456 JLINK_Go() -- CPU_WriteMem(4 bytes @ 0xE0002000) -- CPU_ReadMem(4 bytes @ 0xE0001000) -- CPU_WriteMem(4 bytes @ 0xE0001000) (0002ms, 0857ms total)
T5A60 001:458 JLINK_IsHalted()  returns FALSE (0000ms, 0857ms total)
T5A60 001:467 JLINK_IsHalted()  returns TRUE (0002ms, 0859ms total)
T5A60 001:469 JLINK_ReadReg(R15 (PC))  returns 0x10000000 (0000ms, 0857ms total)
T5A60 001:469 JLINK_ClrBPEx(BPHandle = 0x0000000C)  returns 0x00 (0000ms, 0857ms total)
T5A60 001:469 JLINK_ReadReg(R0)  returns 0x00000000 (0000ms, 0857ms total)
T5A60 001:469 JLINK_WriteMem(0x10000190, 0x0100 Bytes, ...) - Data: B0 0B 00 00 10 3A 02 D3 78 C8 78 C1 FA D8 52 07 ... -- CPU_WriteMem(256 bytes @ 0x10000190)  returns 0x100 (0002ms, 0859ms total)
T5A60 001:471 JLINK_WriteReg(R0, 0x00000100)  returns 0x00 (0000ms, 0859ms total)
T5A60 001:471 JLINK_WriteReg(R1, 0x00000100)  returns 0x00 (0000ms, 0859ms total)
T5A60 001:471 JLINK_WriteReg(R2, 0x10000190)  returns 0x00 (0000ms, 0859ms total)
T5A60 001:471 JLINK_WriteReg(R3, 0x00000000)  returns 0x00 (0000ms, 0859ms total)
T5A60 001:471 JLINK_WriteReg(R4, 0x00000000)  returns 0x00 (0000ms, 0859ms total)
T5A60 001:471 JLINK_WriteReg(R5, 0x00000000)  returns 0x00 (0000ms, 0859ms total)
T5A60 001:471 JLINK_WriteReg(R6, 0x00000000)  returns 0x00 (0000ms, 0859ms total)
T5A60 001:471 JLINK_WriteReg(R7, 0x00000000)  returns 0x00 (0000ms, 0859ms total)
T5A60 001:471 JLINK_WriteReg(R8, 0x00000000)  returns 0x00 (0000ms, 0859ms total)
T5A60 001:471 JLINK_WriteReg(R9, 0x10000168)  returns 0x00 (0000ms, 0859ms total)
T5A60 001:471 JLINK_WriteReg(R10, 0x00000000)  returns 0x00 (0000ms, 0859ms total)
T5A60 001:471 JLINK_WriteReg(R11, 0x00000000)  returns 0x00 (0000ms, 0859ms total)
T5A60 001:471 JLINK_WriteReg(R12, 0x00000000)  returns 0x00 (0000ms, 0859ms total)
T5A60 001:471 JLINK_WriteReg(R13 (SP), 0x10000FE0)  returns 0x00 (0000ms, 0859ms total)
T5A60 001:471 JLINK_WriteReg(R14, 0x10000001)  returns 0x00 (0000ms, 0859ms total)
T5A60 001:471 JLINK_WriteReg(R15 (PC), 0x100000E6)  returns 0x00 (0001ms, 0860ms total)
T5A60 001:472 JLINK_WriteReg(XPSR, 0x01000000)  returns 0x00 (0000ms, 0860ms total)
T5A60 001:472 JLINK_WriteReg(MSP, 0x10000FE0)  returns 0x00 (0000ms, 0860ms total)
T5A60 001:472 JLINK_WriteReg(PSP, 0x10000FE0)  returns 0x00 (0000ms, 0860ms total)
T5A60 001:472 JLINK_WriteReg(CFBP, 0x00000000)  returns 0x00 (0000ms, 0860ms total)
T5A60 001:472 JLINK_SetBPEx(Addr = 0x10000000, Type = 0xFFFFFFF2)  returns 0x0000000D (0000ms, 0860ms total)
T5A60 001:472 JLINK_Go() -- CPU_WriteMem(4 bytes @ 0xE0002000) -- CPU_ReadMem(4 bytes @ 0xE0001000) -- CPU_WriteMem(4 bytes @ 0xE0001000) (0002ms, 0862ms total)
